vset	V(vcell+)	V(vcell-)	I(R3)
0.000000000000000e+00	7.156859e-01	-3.387979e-08	2.681248e-09
1.000000000000000e-03	7.156600e-01	-2.470051e-05	4.995028e-03
2.000000000000000e-03	7.156340e-01	-4.939620e-05	9.994779e-03
3.000000000000000e-03	7.156080e-01	-7.410168e-05	1.499463e-02
4.000000000000000e-03	7.155820e-01	-9.881823e-05	1.999452e-02
5.000000000000000e-03	7.155560e-01	-1.235464e-04	2.499443e-02
6.000000000000000e-03	7.155299e-01	-1.482806e-04	2.999436e-02
7.000000000000000e-03	7.155039e-01	-1.730274e-04	3.499429e-02
8.000000000000000e-03	7.154778e-01	-1.977842e-04	3.999424e-02
9.000000000000001e-03	7.154518e-01	-2.225494e-04	4.499419e-02
1.000000000000000e-02	7.154257e-01	-2.473228e-04	4.999414e-02
1.100000000000000e-02	7.153996e-01	-2.721081e-04	5.499410e-02
1.200000000000000e-02	7.153735e-01	-2.968989e-04	5.999406e-02
1.300000000000000e-02	7.153474e-01	-3.217039e-04	6.499402e-02
1.400000000000001e-02	7.153213e-01	-3.465183e-04	6.999399e-02
1.500000000000001e-02	7.152952e-01	-3.713407e-04	7.499395e-02
1.600000000000001e-02	7.152690e-01	-3.961733e-04	7.999392e-02
1.700000000000001e-02	7.152429e-01	-4.210165e-04	8.499389e-02
1.800000000000001e-02	7.152168e-01	-4.458699e-04	8.999386e-02
1.900000000000001e-02	7.151906e-01	-4.707301e-04	9.499384e-02
2.000000000000001e-02	7.151644e-01	-4.956002e-04	9.999381e-02
2.100000000000001e-02	7.151382e-01	-5.204844e-04	1.049938e-01
2.200000000000001e-02	7.151120e-01	-5.453736e-04	1.099938e-01
2.300000000000001e-02	7.150858e-01	-5.702745e-04	1.149937e-01
2.400000000000001e-02	7.150596e-01	-5.951886e-04	1.199937e-01
2.500000000000002e-02	7.150334e-01	-6.201061e-04	1.249937e-01
2.600000000000002e-02	7.150071e-01	-6.450368e-04	1.299937e-01
2.700000000000002e-02	7.149808e-01	-6.699745e-04	1.349936e-01
2.800000000000002e-02	7.149546e-01	-6.949256e-04	1.399936e-01
2.900000000000002e-02	7.149283e-01	-7.198852e-04	1.449936e-01
3.000000000000002e-02	7.149020e-01	-7.448546e-04	1.499936e-01
3.100000000000002e-02	7.148757e-01	-7.698353e-04	1.549936e-01
3.200000000000002e-02	7.148494e-01	-7.948227e-04	1.599935e-01
3.300000000000002e-02	7.148231e-01	-8.198217e-04	1.649935e-01
3.400000000000002e-02	7.147968e-01	-8.448295e-04	1.699935e-01
3.500000000000002e-02	7.147704e-01	-8.698490e-04	1.749935e-01
3.600000000000003e-02	7.147441e-01	-8.948753e-04	1.799935e-01
3.700000000000003e-02	7.147177e-01	-9.199128e-04	1.849934e-01
3.800000000000003e-02	7.146913e-01	-9.449610e-04	1.899934e-01
3.900000000000003e-02	7.146649e-01	-9.700198e-04	1.949934e-01
4.000000000000003e-02	7.146385e-01	-9.950863e-04	1.999934e-01
4.100000000000003e-02	7.146121e-01	-1.020163e-03	2.049934e-01
4.200000000000003e-02	7.145857e-01	-1.045250e-03	2.099934e-01
4.300000000000003e-02	7.145593e-01	-1.070348e-03	2.149933e-01
4.400000000000003e-02	7.145329e-01	-1.095453e-03	2.199933e-01
4.500000000000003e-02	7.145064e-01	-1.120570e-03	2.249933e-01
4.600000000000003e-02	7.144799e-01	-1.145698e-03	2.299933e-01
4.700000000000003e-02	7.144535e-01	-1.170834e-03	2.349933e-01
4.800000000000004e-02	7.144270e-01	-1.195981e-03	2.399933e-01
4.900000000000004e-02	7.144005e-01	-1.221139e-03	2.449933e-01
5.000000000000004e-02	7.143740e-01	-1.246305e-03	2.499932e-01
5.100000000000004e-02	7.143475e-01	-1.271481e-03	2.549932e-01
5.200000000000004e-02	7.143210e-01	-1.296666e-03	2.599932e-01
5.300000000000004e-02	7.142944e-01	-1.321863e-03	2.649932e-01
5.400000000000004e-02	7.142678e-01	-1.347070e-03	2.699932e-01
5.500000000000004e-02	7.142413e-01	-1.372286e-03	2.749932e-01
5.600000000000004e-02	7.142147e-01	-1.397512e-03	2.799931e-01
5.700000000000004e-02	7.141882e-01	-1.422750e-03	2.849931e-01
5.800000000000004e-02	7.141616e-01	-1.447994e-03	2.899931e-01
5.900000000000005e-02	7.141349e-01	-1.473251e-03	2.949931e-01
6.000000000000005e-02	7.141083e-01	-1.498519e-03	2.999931e-01
6.100000000000005e-02	7.140817e-01	-1.523793e-03	3.049931e-01
6.200000000000005e-02	7.140551e-01	-1.549078e-03	3.099931e-01
6.300000000000004e-02	7.140284e-01	-1.574378e-03	3.149931e-01
6.400000000000004e-02	7.140018e-01	-1.599683e-03	3.199930e-01
6.500000000000004e-02	7.139751e-01	-1.624998e-03	3.249930e-01
6.600000000000004e-02	7.139484e-01	-1.650325e-03	3.299930e-01
6.700000000000005e-02	7.139217e-01	-1.675661e-03	3.349930e-01
6.800000000000005e-02	7.138950e-01	-1.701008e-03	3.399930e-01
6.900000000000005e-02	7.138683e-01	-1.726363e-03	3.449930e-01
7.000000000000005e-02	7.138416e-01	-1.751732e-03	3.499930e-01
7.100000000000005e-02	7.138149e-01	-1.777108e-03	3.549929e-01
7.200000000000005e-02	7.137881e-01	-1.802494e-03	3.599929e-01
7.300000000000005e-02	7.137613e-01	-1.827893e-03	3.649929e-01
7.400000000000005e-02	7.137346e-01	-1.853300e-03	3.699929e-01
7.500000000000005e-02	7.137077e-01	-1.878714e-03	3.749929e-01
7.600000000000005e-02	7.136810e-01	-1.904145e-03	3.799929e-01
7.700000000000005e-02	7.136542e-01	-1.929580e-03	3.849929e-01
7.800000000000006e-02	7.136273e-01	-1.955029e-03	3.899929e-01
7.900000000000006e-02	7.136005e-01	-1.980488e-03	3.949928e-01
8.000000000000006e-02	7.135737e-01	-2.005954e-03	3.999928e-01
8.100000000000006e-02	7.135468e-01	-2.031434e-03	4.049928e-01
8.200000000000006e-02	7.135200e-01	-2.056920e-03	4.099928e-01
8.300000000000006e-02	7.134931e-01	-2.082421e-03	4.149928e-01
8.400000000000006e-02	7.134662e-01	-2.107927e-03	4.199928e-01
8.500000000000006e-02	7.134393e-01	-2.133448e-03	4.249928e-01
8.600000000000006e-02	7.134124e-01	-2.158976e-03	4.299928e-01
8.700000000000006e-02	7.133855e-01	-2.184516e-03	4.349927e-01
8.800000000000006e-02	7.133586e-01	-2.210065e-03	4.399927e-01
8.900000000000007e-02	7.133316e-01	-2.235627e-03	4.449927e-01
9.000000000000007e-02	7.133047e-01	-2.261194e-03	4.499927e-01
9.100000000000007e-02	7.132777e-01	-2.286776e-03	4.549927e-01
9.200000000000007e-02	7.132508e-01	-2.312367e-03	4.599927e-01
9.300000000000007e-02	7.132238e-01	-2.337966e-03	4.649927e-01
9.400000000000007e-02	7.131968e-01	-2.363580e-03	4.699927e-01
9.500000000000007e-02	7.131698e-01	-2.389199e-03	4.749926e-01
9.600000000000007e-02	7.131428e-01	-2.414830e-03	4.799926e-01
9.700000000000007e-02	7.131157e-01	-2.440473e-03	4.849926e-01
9.800000000000007e-02	7.130886e-01	-2.466125e-03	4.899926e-01
9.900000000000007e-02	7.130616e-01	-2.491788e-03	4.949926e-01
1.000000000000001e-01	7.130345e-01	-2.517459e-03	4.999926e-01
1.010000000000001e-01	7.130075e-01	-2.543143e-03	5.049926e-01
1.020000000000001e-01	7.129804e-01	-2.568836e-03	5.099925e-01
1.030000000000001e-01	7.129533e-01	-2.594540e-03	5.149925e-01
1.040000000000001e-01	7.129261e-01	-2.620252e-03	5.199925e-01
1.050000000000001e-01	7.128990e-01	-2.645977e-03	5.249925e-01
1.060000000000001e-01	7.128719e-01	-2.671711e-03	5.299925e-01
1.070000000000001e-01	7.128447e-01	-2.697459e-03	5.349925e-01
1.080000000000001e-01	7.128176e-01	-2.723215e-03	5.399925e-01
1.090000000000001e-01	7.127904e-01	-2.748979e-03	5.449925e-01
1.100000000000001e-01	7.127632e-01	-2.774755e-03	5.499925e-01
1.110000000000001e-01	7.127361e-01	-2.800543e-03	5.549924e-01
1.120000000000001e-01	7.127088e-01	-2.826341e-03	5.599924e-01
1.130000000000001e-01	7.126817e-01	-2.852150e-03	5.649924e-01
1.140000000000001e-01	7.126544e-01	-2.877967e-03	5.699924e-01
1.150000000000001e-01	7.126272e-01	-2.903796e-03	5.749924e-01
1.160000000000001e-01	7.125999e-01	-2.929633e-03	5.799924e-01
1.170000000000001e-01	7.125726e-01	-2.955482e-03	5.849924e-01
1.180000000000001e-01	7.125454e-01	-2.981344e-03	5.899924e-01
1.190000000000001e-01	7.125181e-01	-3.007213e-03	5.949924e-01
1.200000000000001e-01	7.124908e-01	-3.033096e-03	5.999924e-01
1.210000000000001e-01	7.124635e-01	-3.058986e-03	6.049923e-01
1.220000000000001e-01	7.124361e-01	-3.084888e-03	6.099923e-01
1.230000000000001e-01	7.124088e-01	-3.110801e-03	6.149923e-01
1.240000000000001e-01	7.123815e-01	-3.136723e-03	6.199923e-01
1.250000000000001e-01	7.123541e-01	-3.162656e-03	6.249923e-01
1.260000000000001e-01	7.123268e-01	-3.188599e-03	6.299923e-01
1.270000000000001e-01	7.122994e-01	-3.214553e-03	6.349923e-01
1.280000000000001e-01	7.122720e-01	-3.240518e-03	6.399923e-01
1.290000000000001e-01	7.122446e-01	-3.266496e-03	6.449923e-01
1.300000000000001e-01	7.122172e-01	-3.292479e-03	6.499923e-01
1.310000000000001e-01	7.121898e-01	-3.318477e-03	6.549922e-01
1.320000000000001e-01	7.121623e-01	-3.344484e-03	6.599922e-01
1.330000000000001e-01	7.121349e-01	-3.370502e-03	6.649922e-01
1.340000000000001e-01	7.121074e-01	-3.396530e-03	6.699922e-01
1.350000000000001e-01	7.120799e-01	-3.422569e-03	6.749922e-01
1.360000000000001e-01	7.120525e-01	-3.448619e-03	6.799922e-01
1.370000000000001e-01	7.120250e-01	-3.474679e-03	6.849922e-01
1.380000000000001e-01	7.119974e-01	-3.500751e-03	6.899922e-01
1.390000000000001e-01	7.119699e-01	-3.526832e-03	6.949922e-01
1.400000000000001e-01	7.119424e-01	-3.552926e-03	6.999922e-01
1.410000000000001e-01	7.119149e-01	-3.579027e-03	7.049922e-01
1.420000000000001e-01	7.118873e-01	-3.605139e-03	7.099921e-01
1.430000000000001e-01	7.118598e-01	-3.631264e-03	7.149921e-01
1.440000000000001e-01	7.118322e-01	-3.657399e-03	7.199921e-01
1.450000000000001e-01	7.118046e-01	-3.683545e-03	7.249921e-01
1.460000000000001e-01	7.117770e-01	-3.709699e-03	7.299921e-01
1.470000000000001e-01	7.117494e-01	-3.735865e-03	7.349921e-01
1.480000000000001e-01	7.117217e-01	-3.762047e-03	7.399921e-01
1.490000000000001e-01	7.116941e-01	-3.788232e-03	7.449921e-01
1.500000000000001e-01	7.116665e-01	-3.814430e-03	7.499921e-01
1.510000000000001e-01	7.116388e-01	-3.840639e-03	7.549921e-01
1.520000000000001e-01	7.116111e-01	-3.866863e-03	7.599921e-01
1.530000000000001e-01	7.115834e-01	-3.893092e-03	7.649920e-01
1.540000000000001e-01	7.115557e-01	-3.919335e-03	7.699920e-01
1.550000000000001e-01	7.115280e-01	-3.945587e-03	7.749920e-01
1.560000000000001e-01	7.115003e-01	-3.971848e-03	7.799920e-01
1.570000000000001e-01	7.114726e-01	-3.998125e-03	7.849920e-01
1.580000000000001e-01	7.114448e-01	-4.024411e-03	7.899920e-01
1.590000000000001e-01	7.114171e-01	-4.050706e-03	7.949920e-01
1.600000000000001e-01	7.113893e-01	-4.077013e-03	7.999920e-01
1.610000000000001e-01	7.113615e-01	-4.103329e-03	8.049920e-01
1.620000000000001e-01	7.113338e-01	-4.129658e-03	8.099920e-01
1.630000000000001e-01	7.113059e-01	-4.155999e-03	8.149920e-01
1.640000000000001e-01	7.112781e-01	-4.182350e-03	8.199919e-01
1.650000000000001e-01	7.112502e-01	-4.208709e-03	8.249919e-01
1.660000000000001e-01	7.112224e-01	-4.235080e-03	8.299919e-01
1.670000000000001e-01	7.111946e-01	-4.261463e-03	8.349919e-01
1.680000000000001e-01	7.111667e-01	-4.287856e-03	8.399919e-01
1.690000000000001e-01	7.111388e-01	-4.314262e-03	8.449919e-01
1.700000000000001e-01	7.111109e-01	-4.340677e-03	8.499919e-01
1.710000000000001e-01	7.110831e-01	-4.367103e-03	8.549919e-01
1.720000000000001e-01	7.110551e-01	-4.393538e-03	8.599918e-01
1.730000000000001e-01	7.110272e-01	-4.419989e-03	8.649918e-01
1.740000000000001e-01	7.109993e-01	-4.446447e-03	8.699918e-01
1.750000000000001e-01	7.109713e-01	-4.472915e-03	8.749918e-01
1.760000000000001e-01	7.109433e-01	-4.499397e-03	8.799918e-01
1.770000000000001e-01	7.109154e-01	-4.525889e-03	8.849918e-01
1.780000000000001e-01	7.108874e-01	-4.552391e-03	8.899918e-01
1.790000000000001e-01	7.108594e-01	-4.578906e-03	8.949918e-01
1.800000000000001e-01	7.108314e-01	-4.605428e-03	8.999918e-01
1.810000000000001e-01	7.108033e-01	-4.631966e-03	9.049917e-01
1.820000000000001e-01	7.107753e-01	-4.658512e-03	9.099917e-01
1.830000000000001e-01	7.107472e-01	-4.685071e-03	9.149917e-01
1.840000000000001e-01	7.107192e-01	-4.711640e-03	9.199917e-01
1.850000000000001e-01	7.106912e-01	-4.738220e-03	9.249917e-01
1.860000000000001e-01	7.106631e-01	-4.764810e-03	9.299917e-01
1.870000000000001e-01	7.106349e-01	-4.791412e-03	9.349917e-01
1.880000000000001e-01	7.106069e-01	-4.818025e-03	9.399917e-01
1.890000000000001e-01	7.105787e-01	-4.844647e-03	9.449916e-01
1.900000000000001e-01	7.105506e-01	-4.871282e-03	9.499916e-01
1.910000000000001e-01	7.105224e-01	-4.897931e-03	9.549916e-01
1.920000000000001e-01	7.104943e-01	-4.924587e-03	9.599916e-01
1.930000000000001e-01	7.104661e-01	-4.951255e-03	9.649916e-01
1.940000000000001e-01	7.104380e-01	-4.977935e-03	9.699916e-01
1.950000000000001e-01	7.104098e-01	-5.004623e-03	9.749916e-01
1.960000000000001e-01	7.103815e-01	-5.031326e-03	9.799916e-01
1.970000000000001e-01	7.103533e-01	-5.058040e-03	9.849916e-01
1.980000000000001e-01	7.103251e-01	-5.084761e-03	9.899916e-01
1.990000000000001e-01	7.102968e-01	-5.111498e-03	9.949916e-01
2.000000000000001e-01	7.102686e-01	-5.138243e-03	9.999916e-01
2.010000000000002e-01	7.102403e-01	-5.165001e-03	1.004992e+00
2.020000000000002e-01	7.102120e-01	-5.191771e-03	1.009992e+00
2.030000000000002e-01	7.101837e-01	-5.218552e-03	1.014992e+00
2.040000000000002e-01	7.101554e-01	-5.245341e-03	1.019992e+00
2.050000000000002e-01	7.101271e-01	-5.272143e-03	1.024992e+00
2.060000000000002e-01	7.100987e-01	-5.298957e-03	1.029992e+00
2.070000000000002e-01	7.100704e-01	-5.325782e-03	1.034992e+00
2.080000000000002e-01	7.100421e-01	-5.352617e-03	1.039991e+00
2.090000000000002e-01	7.100137e-01	-5.379464e-03	1.044991e+00
2.100000000000002e-01	7.099853e-01	-5.406325e-03	1.049991e+00
2.110000000000002e-01	7.099569e-01	-5.433191e-03	1.054991e+00
2.120000000000002e-01	7.099285e-01	-5.460073e-03	1.059991e+00
2.130000000000002e-01	7.099001e-01	-5.486964e-03	1.064991e+00
2.140000000000002e-01	7.098716e-01	-5.513869e-03	1.069991e+00
2.150000000000002e-01	7.098432e-01	-5.540784e-03	1.074991e+00
2.160000000000002e-01	7.098147e-01	-5.567710e-03	1.079991e+00
2.170000000000002e-01	7.097863e-01	-5.594647e-03	1.084991e+00
2.180000000000002e-01	7.097578e-01	-5.621596e-03	1.089991e+00
2.190000000000002e-01	7.097293e-01	-5.648558e-03	1.094991e+00
2.200000000000002e-01	7.097008e-01	-5.675528e-03	1.099991e+00
2.210000000000002e-01	7.096723e-01	-5.702512e-03	1.104991e+00
2.220000000000002e-01	7.096437e-01	-5.729505e-03	1.109991e+00
2.230000000000002e-01	7.096152e-01	-5.756513e-03	1.114991e+00
2.240000000000002e-01	7.095866e-01	-5.783529e-03	1.119991e+00
2.250000000000002e-01	7.095581e-01	-5.810557e-03	1.124991e+00
2.260000000000002e-01	7.095295e-01	-5.837596e-03	1.129991e+00
2.270000000000002e-01	7.095008e-01	-5.864648e-03	1.134991e+00
2.280000000000002e-01	7.094722e-01	-5.891710e-03	1.139991e+00
2.290000000000002e-01	7.094436e-01	-5.918785e-03	1.144991e+00
2.300000000000002e-01	7.094150e-01	-5.945869e-03	1.149991e+00
2.310000000000002e-01	7.093863e-01	-5.972966e-03	1.154991e+00
2.320000000000002e-01	7.093577e-01	-6.000074e-03	1.159991e+00
2.330000000000002e-01	7.093290e-01	-6.027196e-03	1.164991e+00
2.340000000000002e-01	7.093003e-01	-6.054325e-03	1.169991e+00
2.350000000000002e-01	7.092716e-01	-6.081469e-03	1.174991e+00
2.360000000000002e-01	7.092429e-01	-6.108621e-03	1.179991e+00
2.370000000000002e-01	7.092142e-01	-6.135792e-03	1.184991e+00
2.380000000000002e-01	7.091855e-01	-6.162966e-03	1.189991e+00
2.390000000000002e-01	7.091567e-01	-6.190156e-03	1.194991e+00
2.400000000000002e-01	7.091280e-01	-6.217353e-03	1.199991e+00
2.410000000000002e-01	7.090992e-01	-6.244567e-03	1.204991e+00
2.420000000000002e-01	7.090704e-01	-6.271790e-03	1.209991e+00
2.430000000000002e-01	7.090416e-01	-6.299024e-03	1.214991e+00
2.440000000000002e-01	7.090127e-01	-6.326271e-03	1.219991e+00
2.450000000000002e-01	7.089840e-01	-6.353532e-03	1.224991e+00
2.460000000000002e-01	7.089551e-01	-6.380801e-03	1.229991e+00
2.470000000000002e-01	7.089263e-01	-6.408080e-03	1.234991e+00
2.480000000000002e-01	7.088974e-01	-6.435373e-03	1.239991e+00
2.490000000000002e-01	7.088685e-01	-6.462680e-03	1.244991e+00
2.500000000000002e-01	7.088396e-01	-6.489995e-03	1.249991e+00
2.510000000000002e-01	7.088107e-01	-6.517324e-03	1.254991e+00
2.520000000000002e-01	7.087818e-01	-6.544664e-03	1.259991e+00
2.530000000000002e-01	7.087529e-01	-6.572014e-03	1.264991e+00
2.540000000000002e-01	7.087239e-01	-6.599377e-03	1.269991e+00
2.550000000000002e-01	7.086949e-01	-6.626754e-03	1.274991e+00
2.560000000000002e-01	7.086660e-01	-6.654137e-03	1.279991e+00
2.570000000000002e-01	7.086370e-01	-6.681536e-03	1.284991e+00
2.580000000000002e-01	7.086080e-01	-6.708946e-03	1.289991e+00
2.590000000000002e-01	7.085790e-01	-6.736366e-03	1.294991e+00
2.600000000000002e-01	7.085500e-01	-6.763799e-03	1.299991e+00
2.610000000000002e-01	7.085209e-01	-6.791245e-03	1.304991e+00
2.620000000000002e-01	7.084919e-01	-6.818699e-03	1.309991e+00
2.630000000000002e-01	7.084628e-01	-6.846170e-03	1.314991e+00
2.640000000000002e-01	7.084337e-01	-6.873650e-03	1.319991e+00
2.650000000000002e-01	7.084047e-01	-6.901144e-03	1.324991e+00
2.660000000000002e-01	7.083756e-01	-6.928645e-03	1.329991e+00
2.670000000000002e-01	7.083464e-01	-6.956164e-03	1.334991e+00
2.680000000000002e-01	7.083173e-01	-6.983689e-03	1.339991e+00
2.690000000000002e-01	7.082882e-01	-7.011227e-03	1.344991e+00
2.700000000000002e-01	7.082590e-01	-7.038778e-03	1.349991e+00
2.710000000000002e-01	7.082298e-01	-7.066341e-03	1.354991e+00
2.720000000000002e-01	7.082007e-01	-7.093915e-03	1.359991e+00
2.730000000000002e-01	7.081715e-01	-7.121504e-03	1.364991e+00
2.740000000000002e-01	7.081423e-01	-7.149102e-03	1.369991e+00
2.750000000000002e-01	7.081131e-01	-7.176710e-03	1.374991e+00
2.760000000000002e-01	7.080838e-01	-7.204335e-03	1.379991e+00
2.770000000000002e-01	7.080545e-01	-7.231967e-03	1.384991e+00
2.780000000000002e-01	7.080253e-01	-7.259614e-03	1.389991e+00
2.790000000000002e-01	7.079960e-01	-7.287273e-03	1.394991e+00
2.800000000000002e-01	7.079667e-01	-7.314940e-03	1.399991e+00
2.810000000000002e-01	7.079374e-01	-7.342623e-03	1.404991e+00
2.820000000000002e-01	7.079082e-01	-7.370318e-03	1.409991e+00
2.830000000000002e-01	7.078788e-01	-7.398022e-03	1.414991e+00
2.840000000000002e-01	7.078494e-01	-7.425740e-03	1.419991e+00
2.850000000000002e-01	7.078201e-01	-7.453469e-03	1.424991e+00
2.860000000000002e-01	7.077907e-01	-7.481215e-03	1.429991e+00
2.870000000000002e-01	7.077613e-01	-7.508964e-03	1.434991e+00
2.880000000000002e-01	7.077320e-01	-7.536734e-03	1.439991e+00
2.890000000000002e-01	7.077026e-01	-7.564508e-03	1.444991e+00
2.900000000000002e-01	7.076731e-01	-7.592298e-03	1.449991e+00
2.910000000000002e-01	7.076437e-01	-7.620100e-03	1.454991e+00
2.920000000000002e-01	7.076142e-01	-7.647913e-03	1.459991e+00
2.930000000000002e-01	7.075848e-01	-7.675742e-03	1.464991e+00
2.940000000000002e-01	7.075553e-01	-7.703580e-03	1.469991e+00
2.950000000000002e-01	7.075258e-01	-7.731427e-03	1.474991e+00
2.960000000000002e-01	7.074963e-01	-7.759292e-03	1.479991e+00
2.970000000000002e-01	7.074668e-01	-7.787164e-03	1.484991e+00
2.980000000000002e-01	7.074373e-01	-7.815048e-03	1.489991e+00
2.990000000000002e-01	7.074078e-01	-7.842949e-03	1.494991e+00
3.000000000000002e-01	7.073782e-01	-7.870859e-03	1.499991e+00
3.010000000000002e-01	7.073486e-01	-7.898782e-03	1.504991e+00
3.020000000000002e-01	7.073190e-01	-7.926718e-03	1.509991e+00
3.030000000000002e-01	7.072895e-01	-7.954664e-03	1.514991e+00
3.040000000000002e-01	7.072598e-01	-7.982623e-03	1.519991e+00
3.050000000000002e-01	7.072302e-01	-8.010594e-03	1.524991e+00
3.060000000000002e-01	7.072006e-01	-8.038579e-03	1.529991e+00
3.070000000000002e-01	7.071709e-01	-8.066575e-03	1.534991e+00
3.080000000000002e-01	7.071413e-01	-8.094584e-03	1.539991e+00
3.090000000000002e-01	7.071116e-01	-8.122602e-03	1.544991e+00
3.100000000000002e-01	7.070819e-01	-8.150637e-03	1.549991e+00
3.110000000000002e-01	7.070522e-01	-8.178679e-03	1.554991e+00
3.120000000000002e-01	7.070224e-01	-8.206738e-03	1.559991e+00
3.130000000000002e-01	7.069927e-01	-8.234806e-03	1.564991e+00
3.140000000000002e-01	7.069630e-01	-8.262889e-03	1.569991e+00
3.150000000000002e-01	7.069332e-01	-8.290982e-03	1.574991e+00
3.160000000000002e-01	7.069035e-01	-8.319090e-03	1.579991e+00
3.170000000000002e-01	7.068737e-01	-8.347207e-03	1.584991e+00
3.180000000000002e-01	7.068439e-01	-8.375338e-03	1.589990e+00
3.190000000000002e-01	7.068141e-01	-8.403479e-03	1.594990e+00
3.200000000000002e-01	7.067842e-01	-8.431638e-03	1.599990e+00
3.210000000000002e-01	7.067544e-01	-8.459805e-03	1.604990e+00
