vset	V(vmeas)	I(R3)
0.000000000000000e+00	7.156578e-01	2.681248e-09
1.000000000000000e-03	7.156565e-01	4.995028e-03
2.000000000000000e-03	7.156552e-01	9.994779e-03
3.000000000000000e-03	7.156540e-01	1.499463e-02
4.000000000000000e-03	7.156526e-01	1.999452e-02
5.000000000000000e-03	7.156513e-01	2.499443e-02
6.000000000000000e-03	7.156501e-01	2.999436e-02
7.000000000000000e-03	7.156488e-01	3.499429e-02
8.000000000000000e-03	7.156475e-01	3.999424e-02
9.000000000000001e-03	7.156461e-01	4.499419e-02
1.000000000000000e-02	7.156448e-01	4.999414e-02
1.100000000000000e-02	7.156436e-01	5.499410e-02
1.200000000000000e-02	7.156423e-01	5.999406e-02
1.300000000000000e-02	7.156410e-01	6.499402e-02
1.400000000000001e-02	7.156397e-01	6.999399e-02
1.500000000000001e-02	7.156383e-01	7.499395e-02
1.600000000000001e-02	7.156370e-01	7.999392e-02
1.700000000000001e-02	7.156357e-01	8.499389e-02
1.800000000000001e-02	7.156345e-01	8.999386e-02
1.900000000000001e-02	7.156332e-01	9.499384e-02
2.000000000000001e-02	7.156318e-01	9.999381e-02
2.100000000000001e-02	7.156305e-01	1.049938e-01
2.200000000000001e-02	7.156292e-01	1.099938e-01
2.300000000000001e-02	7.156279e-01	1.149937e-01
2.400000000000001e-02	7.156266e-01	1.199937e-01
2.500000000000002e-02	7.156253e-01	1.249937e-01
2.600000000000002e-02	7.156240e-01	1.299937e-01
2.700000000000002e-02	7.156226e-01	1.349936e-01
2.800000000000002e-02	7.156213e-01	1.399936e-01
2.900000000000002e-02	7.156200e-01	1.449936e-01
3.000000000000002e-02	7.156187e-01	1.499936e-01
3.100000000000002e-02	7.156174e-01	1.549936e-01
3.200000000000002e-02	7.156160e-01	1.599935e-01
3.300000000000002e-02	7.156147e-01	1.649935e-01
3.400000000000002e-02	7.156134e-01	1.699935e-01
3.500000000000002e-02	7.156121e-01	1.749935e-01
3.600000000000003e-02	7.156107e-01	1.799935e-01
3.700000000000003e-02	7.156094e-01	1.849934e-01
3.800000000000003e-02	7.156081e-01	1.899934e-01
3.900000000000003e-02	7.156067e-01	1.949934e-01
4.000000000000003e-02	7.156054e-01	1.999934e-01
4.100000000000003e-02	7.156041e-01	2.049934e-01
4.200000000000003e-02	7.156028e-01	2.099934e-01
4.300000000000003e-02	7.156014e-01	2.149933e-01
4.400000000000003e-02	7.156001e-01	2.199933e-01
4.500000000000003e-02	7.155988e-01	2.249933e-01
4.600000000000003e-02	7.155975e-01	2.299933e-01
4.700000000000003e-02	7.155961e-01	2.349933e-01
4.800000000000004e-02	7.155948e-01	2.399933e-01
4.900000000000004e-02	7.155934e-01	2.449933e-01
5.000000000000004e-02	7.155921e-01	2.499932e-01
5.100000000000004e-02	7.155907e-01	2.549932e-01
5.200000000000004e-02	7.155894e-01	2.599932e-01
5.300000000000004e-02	7.155880e-01	2.649932e-01
5.400000000000004e-02	7.155867e-01	2.699932e-01
5.500000000000004e-02	7.155854e-01	2.749932e-01
5.600000000000004e-02	7.155840e-01	2.799931e-01
5.700000000000004e-02	7.155827e-01	2.849931e-01
5.800000000000004e-02	7.155813e-01	2.899931e-01
5.900000000000005e-02	7.155800e-01	2.949931e-01
6.000000000000005e-02	7.155786e-01	2.999931e-01
6.100000000000005e-02	7.155772e-01	3.049931e-01
6.200000000000005e-02	7.155759e-01	3.099931e-01
6.300000000000004e-02	7.155746e-01	3.149931e-01
6.400000000000004e-02	7.155732e-01	3.199930e-01
6.500000000000004e-02	7.155718e-01	3.249930e-01
6.600000000000004e-02	7.155705e-01	3.299930e-01
6.700000000000005e-02	7.155691e-01	3.349930e-01
6.800000000000005e-02	7.155678e-01	3.399930e-01
6.900000000000005e-02	7.155664e-01	3.449930e-01
7.000000000000005e-02	7.155650e-01	3.499930e-01
7.100000000000005e-02	7.155637e-01	3.549929e-01
7.200000000000005e-02	7.155623e-01	3.599929e-01
7.300000000000005e-02	7.155610e-01	3.649929e-01
7.400000000000005e-02	7.155596e-01	3.699929e-01
7.500000000000005e-02	7.155582e-01	3.749929e-01
7.600000000000005e-02	7.155569e-01	3.799929e-01
7.700000000000005e-02	7.155555e-01	3.849929e-01
7.800000000000006e-02	7.155541e-01	3.899929e-01
7.900000000000006e-02	7.155527e-01	3.949928e-01
8.000000000000006e-02	7.155514e-01	3.999928e-01
8.100000000000006e-02	7.155500e-01	4.049928e-01
8.200000000000006e-02	7.155486e-01	4.099928e-01
8.300000000000006e-02	7.155473e-01	4.149928e-01
8.400000000000006e-02	7.155459e-01	4.199928e-01
8.500000000000006e-02	7.155445e-01	4.249928e-01
8.600000000000006e-02	7.155432e-01	4.299928e-01
8.700000000000006e-02	7.155417e-01	4.349927e-01
8.800000000000006e-02	7.155403e-01	4.399927e-01
8.900000000000007e-02	7.155390e-01	4.449927e-01
9.000000000000007e-02	7.155376e-01	4.499927e-01
9.100000000000007e-02	7.155362e-01	4.549927e-01
9.200000000000007e-02	7.155348e-01	4.599927e-01
9.300000000000007e-02	7.155334e-01	4.649927e-01
9.400000000000007e-02	7.155321e-01	4.699927e-01
9.500000000000007e-02	7.155307e-01	4.749926e-01
9.600000000000007e-02	7.155293e-01	4.799926e-01
9.700000000000007e-02	7.155279e-01	4.849926e-01
9.800000000000007e-02	7.155265e-01	4.899926e-01
9.900000000000007e-02	7.155251e-01	4.949926e-01
1.000000000000001e-01	7.155237e-01	4.999926e-01
1.010000000000001e-01	7.155223e-01	5.049926e-01
1.020000000000001e-01	7.155209e-01	5.099925e-01
1.030000000000001e-01	7.155195e-01	5.149925e-01
1.040000000000001e-01	7.155181e-01	5.199925e-01
1.050000000000001e-01	7.155167e-01	5.249925e-01
1.060000000000001e-01	7.155153e-01	5.299925e-01
1.070000000000001e-01	7.155139e-01	5.349925e-01
1.080000000000001e-01	7.155125e-01	5.399925e-01
1.090000000000001e-01	7.155111e-01	5.449925e-01
1.100000000000001e-01	7.155097e-01	5.499925e-01
1.110000000000001e-01	7.155083e-01	5.549924e-01
1.120000000000001e-01	7.155069e-01	5.599924e-01
1.130000000000001e-01	7.155055e-01	5.649924e-01
1.140000000000001e-01	7.155041e-01	5.699924e-01
1.150000000000001e-01	7.155027e-01	5.749924e-01
1.160000000000001e-01	7.155012e-01	5.799924e-01
1.170000000000001e-01	7.154998e-01	5.849924e-01
1.180000000000001e-01	7.154984e-01	5.899924e-01
1.190000000000001e-01	7.154970e-01	5.949924e-01
1.200000000000001e-01	7.154956e-01	5.999924e-01
1.210000000000001e-01	7.154942e-01	6.049923e-01
1.220000000000001e-01	7.154927e-01	6.099923e-01
1.230000000000001e-01	7.154914e-01	6.149923e-01
1.240000000000001e-01	7.154899e-01	6.199923e-01
1.250000000000001e-01	7.154885e-01	6.249923e-01
1.260000000000001e-01	7.154871e-01	6.299923e-01
1.270000000000001e-01	7.154856e-01	6.349923e-01
1.280000000000001e-01	7.154842e-01	6.399923e-01
1.290000000000001e-01	7.154828e-01	6.449923e-01
1.300000000000001e-01	7.154813e-01	6.499923e-01
1.310000000000001e-01	7.154799e-01	6.549922e-01
1.320000000000001e-01	7.154785e-01	6.599922e-01
1.330000000000001e-01	7.154770e-01	6.649922e-01
1.340000000000001e-01	7.154756e-01	6.699922e-01
1.350000000000001e-01	7.154742e-01	6.749922e-01
1.360000000000001e-01	7.154728e-01	6.799922e-01
1.370000000000001e-01	7.154713e-01	6.849922e-01
1.380000000000001e-01	7.154699e-01	6.899922e-01
1.390000000000001e-01	7.154685e-01	6.949922e-01
1.400000000000001e-01	7.154670e-01	6.999922e-01
1.410000000000001e-01	7.154655e-01	7.049922e-01
1.420000000000001e-01	7.154641e-01	7.099921e-01
1.430000000000001e-01	7.154627e-01	7.149921e-01
1.440000000000001e-01	7.154613e-01	7.199921e-01
1.450000000000001e-01	7.154598e-01	7.249921e-01
1.460000000000001e-01	7.154583e-01	7.299921e-01
1.470000000000001e-01	7.154569e-01	7.349921e-01
1.480000000000001e-01	7.154554e-01	7.399921e-01
1.490000000000001e-01	7.154540e-01	7.449921e-01
1.500000000000001e-01	7.154526e-01	7.499921e-01
1.510000000000001e-01	7.154511e-01	7.549921e-01
1.520000000000001e-01	7.154496e-01	7.599921e-01
1.530000000000001e-01	7.154482e-01	7.649920e-01
1.540000000000001e-01	7.154467e-01	7.699920e-01
1.550000000000001e-01	7.154453e-01	7.749920e-01
1.560000000000001e-01	7.154438e-01	7.799920e-01
1.570000000000001e-01	7.154424e-01	7.849920e-01
1.580000000000001e-01	7.154409e-01	7.899920e-01
1.590000000000001e-01	7.154394e-01	7.949920e-01
1.600000000000001e-01	7.154379e-01	7.999920e-01
1.610000000000001e-01	7.154365e-01	8.049920e-01
1.620000000000001e-01	7.154350e-01	8.099920e-01
1.630000000000001e-01	7.154335e-01	8.149920e-01
1.640000000000001e-01	7.154321e-01	8.199919e-01
1.650000000000001e-01	7.154306e-01	8.249919e-01
1.660000000000001e-01	7.154291e-01	8.299919e-01
1.670000000000001e-01	7.154277e-01	8.349919e-01
1.680000000000001e-01	7.154262e-01	8.399919e-01
1.690000000000001e-01	7.154247e-01	8.449919e-01
1.700000000000001e-01	7.154232e-01	8.499919e-01
1.710000000000001e-01	7.154218e-01	8.549919e-01
1.720000000000001e-01	7.154203e-01	8.599918e-01
1.730000000000001e-01	7.154188e-01	8.649918e-01
1.740000000000001e-01	7.154173e-01	8.699918e-01
1.750000000000001e-01	7.154158e-01	8.749918e-01
1.760000000000001e-01	7.154143e-01	8.799918e-01
1.770000000000001e-01	7.154129e-01	8.849918e-01
1.780000000000001e-01	7.154114e-01	8.899918e-01
1.790000000000001e-01	7.154099e-01	8.949918e-01
1.800000000000001e-01	7.154084e-01	8.999918e-01
1.810000000000001e-01	7.154070e-01	9.049917e-01
1.820000000000001e-01	7.154055e-01	9.099917e-01
1.830000000000001e-01	7.154040e-01	9.149917e-01
1.840000000000001e-01	7.154025e-01	9.199917e-01
1.850000000000001e-01	7.154009e-01	9.249917e-01
1.860000000000001e-01	7.153994e-01	9.299917e-01
1.870000000000001e-01	7.153980e-01	9.349917e-01
1.880000000000001e-01	7.153965e-01	9.399917e-01
1.890000000000001e-01	7.153950e-01	9.449916e-01
1.900000000000001e-01	7.153935e-01	9.499916e-01
1.910000000000001e-01	7.153920e-01	9.549916e-01
1.920000000000001e-01	7.153904e-01	9.599916e-01
1.930000000000001e-01	7.153890e-01	9.649916e-01
1.940000000000001e-01	7.153875e-01	9.699916e-01
1.950000000000001e-01	7.153860e-01	9.749916e-01
1.960000000000001e-01	7.153844e-01	9.799916e-01
1.970000000000001e-01	7.153829e-01	9.849916e-01
1.980000000000001e-01	7.153814e-01	9.899916e-01
1.990000000000001e-01	7.153799e-01	9.949916e-01
2.000000000000001e-01	7.153784e-01	9.999916e-01
2.010000000000002e-01	7.153769e-01	1.004992e+00
2.020000000000002e-01	7.153754e-01	1.009992e+00
2.030000000000002e-01	7.153739e-01	1.014992e+00
2.040000000000002e-01	7.153723e-01	1.019992e+00
2.050000000000002e-01	7.153708e-01	1.024992e+00
2.060000000000002e-01	7.153693e-01	1.029992e+00
2.070000000000002e-01	7.153678e-01	1.034992e+00
2.080000000000002e-01	7.153662e-01	1.039991e+00
2.090000000000002e-01	7.153648e-01	1.044991e+00
2.100000000000002e-01	7.153632e-01	1.049991e+00
2.110000000000002e-01	7.153617e-01	1.054991e+00
2.120000000000002e-01	7.153602e-01	1.059991e+00
2.130000000000002e-01	7.153586e-01	1.064991e+00
2.140000000000002e-01	7.153571e-01	1.069991e+00
2.150000000000002e-01	7.153556e-01	1.074991e+00
2.160000000000002e-01	7.153540e-01	1.079991e+00
2.170000000000002e-01	7.153525e-01	1.084991e+00
2.180000000000002e-01	7.153509e-01	1.089991e+00
2.190000000000002e-01	7.153494e-01	1.094991e+00
2.200000000000002e-01	7.153479e-01	1.099991e+00
2.210000000000002e-01	7.153463e-01	1.104991e+00
2.220000000000002e-01	7.153448e-01	1.109991e+00
2.230000000000002e-01	7.153432e-01	1.114991e+00
2.240000000000002e-01	7.153417e-01	1.119991e+00
2.250000000000002e-01	7.153401e-01	1.124991e+00
2.260000000000002e-01	7.153386e-01	1.129991e+00
2.270000000000002e-01	7.153371e-01	1.134991e+00
2.280000000000002e-01	7.153355e-01	1.139991e+00
2.290000000000002e-01	7.153340e-01	1.144991e+00
2.300000000000002e-01	7.153324e-01	1.149991e+00
2.310000000000002e-01	7.153309e-01	1.154991e+00
2.320000000000002e-01	7.153293e-01	1.159991e+00
2.330000000000002e-01	7.153277e-01	1.164991e+00
2.340000000000002e-01	7.153262e-01	1.169991e+00
2.350000000000002e-01	7.153246e-01	1.174991e+00
2.360000000000002e-01	7.153231e-01	1.179991e+00
2.370000000000002e-01	7.153215e-01	1.184991e+00
2.380000000000002e-01	7.153200e-01	1.189991e+00
2.390000000000002e-01	7.153184e-01	1.194991e+00
2.400000000000002e-01	7.153168e-01	1.199991e+00
2.410000000000002e-01	7.153153e-01	1.204991e+00
2.420000000000002e-01	7.153137e-01	1.209991e+00
2.430000000000002e-01	7.153121e-01	1.214991e+00
2.440000000000002e-01	7.153106e-01	1.219991e+00
2.450000000000002e-01	7.153090e-01	1.224991e+00
2.460000000000002e-01	7.153074e-01	1.229991e+00
2.470000000000002e-01	7.153059e-01	1.234991e+00
2.480000000000002e-01	7.153043e-01	1.239991e+00
2.490000000000002e-01	7.153027e-01	1.244991e+00
2.500000000000002e-01	7.153011e-01	1.249991e+00
2.510000000000002e-01	7.152995e-01	1.254991e+00
2.520000000000002e-01	7.152979e-01	1.259991e+00
2.530000000000002e-01	7.152964e-01	1.264991e+00
2.540000000000002e-01	7.152948e-01	1.269991e+00
2.550000000000002e-01	7.152932e-01	1.274991e+00
2.560000000000002e-01	7.152916e-01	1.279991e+00
2.570000000000002e-01	7.152900e-01	1.284991e+00
2.580000000000002e-01	7.152885e-01	1.289991e+00
2.590000000000002e-01	7.152869e-01	1.294991e+00
2.600000000000002e-01	7.152852e-01	1.299991e+00
2.610000000000002e-01	7.152837e-01	1.304991e+00
2.620000000000002e-01	7.152821e-01	1.309991e+00
2.630000000000002e-01	7.152805e-01	1.314991e+00
2.640000000000002e-01	7.152789e-01	1.319991e+00
2.650000000000002e-01	7.152773e-01	1.324991e+00
2.660000000000002e-01	7.152757e-01	1.329991e+00
2.670000000000002e-01	7.152741e-01	1.334991e+00
2.680000000000002e-01	7.152725e-01	1.339991e+00
2.690000000000002e-01	7.152709e-01	1.344991e+00
2.700000000000002e-01	7.152693e-01	1.349991e+00
2.710000000000002e-01	7.152677e-01	1.354991e+00
2.720000000000002e-01	7.152660e-01	1.359991e+00
2.730000000000002e-01	7.152644e-01	1.364991e+00
2.740000000000002e-01	7.152628e-01	1.369991e+00
2.750000000000002e-01	7.152612e-01	1.374991e+00
2.760000000000002e-01	7.152596e-01	1.379991e+00
2.770000000000002e-01	7.152580e-01	1.384991e+00
2.780000000000002e-01	7.152564e-01	1.389991e+00
2.790000000000002e-01	7.152548e-01	1.394991e+00
2.800000000000002e-01	7.152532e-01	1.399991e+00
2.810000000000002e-01	7.152516e-01	1.404991e+00
2.820000000000002e-01	7.152499e-01	1.409991e+00
2.830000000000002e-01	7.152483e-01	1.414991e+00
2.840000000000002e-01	7.152467e-01	1.419991e+00
2.850000000000002e-01	7.152451e-01	1.424991e+00
2.860000000000002e-01	7.152434e-01	1.429991e+00
2.870000000000002e-01	7.152418e-01	1.434991e+00
2.880000000000002e-01	7.152402e-01	1.439991e+00
2.890000000000002e-01	7.152385e-01	1.444991e+00
2.900000000000002e-01	7.152369e-01	1.449991e+00
2.910000000000002e-01	7.152353e-01	1.454991e+00
2.920000000000002e-01	7.152336e-01	1.459991e+00
2.930000000000002e-01	7.152320e-01	1.464991e+00
2.940000000000002e-01	7.152303e-01	1.469991e+00
2.950000000000002e-01	7.152287e-01	1.474991e+00
2.960000000000002e-01	7.152271e-01	1.479991e+00
2.970000000000002e-01	7.152255e-01	1.484991e+00
2.980000000000002e-01	7.152238e-01	1.489991e+00
2.990000000000002e-01	7.152221e-01	1.494991e+00
3.000000000000002e-01	7.152205e-01	1.499991e+00
3.010000000000002e-01	7.152188e-01	1.504991e+00
3.020000000000002e-01	7.152172e-01	1.509991e+00
3.030000000000002e-01	7.152156e-01	1.514991e+00
3.040000000000002e-01	7.152139e-01	1.519991e+00
3.050000000000002e-01	7.152122e-01	1.524991e+00
3.060000000000002e-01	7.152106e-01	1.529991e+00
3.070000000000002e-01	7.152089e-01	1.534991e+00
3.080000000000002e-01	7.152073e-01	1.539991e+00
3.090000000000002e-01	7.152056e-01	1.544991e+00
3.100000000000002e-01	7.152039e-01	1.549991e+00
3.110000000000002e-01	7.152023e-01	1.554991e+00
3.120000000000002e-01	7.152006e-01	1.559991e+00
3.130000000000002e-01	7.151989e-01	1.564991e+00
3.140000000000002e-01	7.151973e-01	1.569991e+00
3.150000000000002e-01	7.151957e-01	1.574991e+00
3.160000000000002e-01	7.151939e-01	1.579991e+00
3.170000000000002e-01	7.151923e-01	1.584991e+00
3.180000000000002e-01	7.151906e-01	1.589990e+00
3.190000000000002e-01	7.151889e-01	1.594990e+00
3.200000000000002e-01	7.151873e-01	1.599990e+00
3.210000000000002e-01	7.151856e-01	1.604990e+00
3.220000000000002e-01	7.151839e-01	1.609990e+00
3.230000000000002e-01	7.151822e-01	1.614990e+00
3.240000000000002e-01	7.151806e-01	1.619990e+00
3.250000000000002e-01	7.151788e-01	1.624990e+00
3.260000000000002e-01	7.151772e-01	1.629990e+00
3.270000000000002e-01	7.151755e-01	1.634990e+00
3.280000000000002e-01	7.151738e-01	1.639990e+00
3.290000000000002e-01	7.151721e-01	1.644990e+00
3.300000000000002e-01	7.151704e-01	1.649990e+00
3.310000000000002e-01	7.151687e-01	1.654990e+00
3.320000000000002e-01	7.151670e-01	1.659990e+00
3.330000000000002e-01	7.151654e-01	1.664990e+00
3.340000000000002e-01	7.151636e-01	1.669990e+00
3.350000000000002e-01	7.151620e-01	1.674990e+00
3.360000000000002e-01	7.151603e-01	1.679990e+00
3.370000000000002e-01	7.151586e-01	1.684990e+00
3.380000000000002e-01	7.151569e-01	1.689990e+00
3.390000000000002e-01	7.151551e-01	1.694990e+00
3.400000000000002e-01	7.151535e-01	1.699990e+00
3.410000000000002e-01	7.151517e-01	1.704990e+00
3.420000000000002e-01	7.151501e-01	1.709990e+00
3.430000000000002e-01	7.151483e-01	1.714990e+00
3.440000000000003e-01	7.151466e-01	1.719990e+00
3.450000000000003e-01	7.151449e-01	1.724990e+00
3.460000000000003e-01	7.151432e-01	1.729990e+00
3.470000000000003e-01	7.151415e-01	1.734990e+00
3.480000000000003e-01	7.151397e-01	1.739990e+00
3.490000000000003e-01	7.151380e-01	1.744990e+00
3.500000000000003e-01	7.151363e-01	1.749990e+00
3.510000000000003e-01	7.151346e-01	1.754990e+00
3.520000000000003e-01	7.151329e-01	1.759990e+00
3.530000000000003e-01	7.151312e-01	1.764990e+00
3.540000000000003e-01	7.151294e-01	1.769990e+00
3.550000000000003e-01	7.151277e-01	1.774990e+00
3.560000000000003e-01	7.151260e-01	1.779990e+00
3.570000000000003e-01	7.151242e-01	1.784990e+00
3.580000000000003e-01	7.151225e-01	1.789990e+00
3.590000000000003e-01	7.151208e-01	1.794990e+00
3.600000000000003e-01	7.151190e-01	1.799990e+00
3.610000000000003e-01	7.151173e-01	1.804990e+00
3.620000000000003e-01	7.151155e-01	1.809990e+00
3.630000000000003e-01	7.151138e-01	1.814990e+00
3.640000000000003e-01	7.151121e-01	1.819990e+00
3.650000000000003e-01	7.151104e-01	1.824990e+00
3.660000000000003e-01	7.151086e-01	1.829990e+00
3.670000000000003e-01	7.151068e-01	1.834990e+00
3.680000000000003e-01	7.151051e-01	1.839990e+00
3.690000000000003e-01	7.151033e-01	1.844990e+00
3.700000000000003e-01	7.151016e-01	1.849990e+00
3.710000000000003e-01	7.150999e-01	1.854990e+00
3.720000000000003e-01	7.150981e-01	1.859990e+00
3.730000000000003e-01	7.150964e-01	1.864990e+00
3.740000000000003e-01	7.150946e-01	1.869990e+00
3.750000000000003e-01	7.150928e-01	1.874990e+00
3.760000000000003e-01	7.150910e-01	1.879990e+00
3.770000000000003e-01	7.150893e-01	1.884990e+00
3.780000000000003e-01	7.150875e-01	1.889990e+00
3.790000000000003e-01	7.150857e-01	1.894990e+00
3.800000000000003e-01	7.150840e-01	1.899990e+00
3.810000000000003e-01	7.150822e-01	1.904990e+00
3.820000000000003e-01	7.150804e-01	1.909990e+00
3.830000000000003e-01	7.150787e-01	1.914990e+00
3.840000000000003e-01	7.150769e-01	1.919990e+00
3.850000000000003e-01	7.150751e-01	1.924990e+00
3.860000000000003e-01	7.150733e-01	1.929990e+00
3.870000000000003e-01	7.150716e-01	1.934990e+00
3.880000000000003e-01	7.150698e-01	1.939990e+00
3.890000000000003e-01	7.150680e-01	1.944990e+00
3.900000000000003e-01	7.150663e-01	1.949990e+00
3.910000000000003e-01	7.150645e-01	1.954990e+00
3.920000000000003e-01	7.150627e-01	1.959990e+00
3.930000000000003e-01	7.150609e-01	1.964990e+00
3.940000000000003e-01	7.150591e-01	1.969990e+00
3.950000000000003e-01	7.150573e-01	1.974990e+00
3.960000000000003e-01	7.150555e-01	1.979990e+00
3.970000000000003e-01	7.150537e-01	1.984990e+00
3.980000000000003e-01	7.150519e-01	1.989990e+00
3.990000000000003e-01	7.150502e-01	1.994990e+00
4.000000000000003e-01	7.150484e-01	1.999990e+00
4.010000000000003e-01	7.150465e-01	2.004990e+00
4.020000000000003e-01	7.150447e-01	2.009990e+00
4.030000000000003e-01	7.150429e-01	2.014990e+00
4.040000000000003e-01	7.150412e-01	2.019990e+00
4.050000000000003e-01	7.150393e-01	2.024990e+00
4.060000000000003e-01	7.150375e-01	2.029990e+00
4.070000000000003e-01	7.150357e-01	2.034990e+00
4.080000000000003e-01	7.150339e-01	2.039990e+00
4.090000000000003e-01	7.150321e-01	2.044990e+00
4.100000000000003e-01	7.150303e-01	2.049990e+00
4.110000000000003e-01	7.150285e-01	2.054990e+00
4.120000000000003e-01	7.150266e-01	2.059990e+00
4.130000000000003e-01	7.150248e-01	2.064990e+00
4.140000000000003e-01	7.150230e-01	2.069990e+00
4.150000000000003e-01	7.150212e-01	2.074990e+00
